time	Id(Mp1)	Id(Mp2)	Id(Mp3)
0.000000000000000e+00	0.000000e+00	0.000000e+00	0.000000e+00
1.953124988129940e-11	9.078559e-11	9.102113e-11	1.362581e-10
7.310267812714919e-10	9.084049e-11	9.102522e-11	1.363169e-10
1.442522312661684e-09	9.089604e-11	9.103011e-11	1.363768e-10
2.154017844051877e-09	9.095224e-11	9.103580e-11	1.364378e-10
2.865513375442070e-09	9.100910e-11	9.104227e-11	1.364998e-10
3.577008906832262e-09	9.106661e-11	9.104954e-11	1.365630e-10
4.288504438222455e-09	9.112477e-11	9.105759e-11	1.366272e-10
4.999999969612645e-09	9.118358e-11	9.106645e-11	1.366925e-10
3.999999975690116e-08	9.382504e-11	9.141318e-11	1.396542e-10
7.999999951380232e-08	9.646522e-11	9.179704e-11	1.427455e-10
1.599999990276046e-07	1.006853e-10	9.252724e-11	1.480551e-10
3.199999980552093e-07	1.061090e-10	9.388267e-11	1.558133e-10
6.399999961104186e-07	1.114641e-10	9.644685e-11	1.647749e-10
1.279999992220837e-06	1.168279e-10	1.016534e-10	1.741711e-10
2.256562492220837e-06	1.236287e-10	1.101922e-10	1.848182e-10
3.233124992220837e-06	1.314499e-10	1.196102e-10	1.963745e-10
4.209687492220837e-06	1.410588e-10	1.301603e-10	2.103951e-10
5.186249992220837e-06	1.529334e-10	1.421668e-10	2.276296e-10
6.162812492220837e-06	1.676100e-10	1.561016e-10	2.488421e-10
7.139374992220837e-06	1.857313e-10	1.725486e-10	2.749324e-10
8.115937492220836e-06	2.080690e-10	1.921787e-10	3.069725e-10
9.092499992220837e-06	2.355415e-10	2.157453e-10	3.462317e-10
1.006906249222084e-05	2.692273e-10	2.440887e-10	3.941927e-10
1.104562499222084e-05	3.103716e-10	2.781390e-10	4.525573e-10
1.202218749222084e-05	3.603799e-10	3.189077e-10	5.232344e-10
1.299874999222084e-05	4.207944e-10	3.674653e-10	6.083023e-10
1.397531249222084e-05	4.932434e-10	4.248958e-10	7.099352e-10
1.495187499222084e-05	5.793593e-10	4.922278e-10	8.302840e-10
1.592843749222084e-05	6.806575e-10	5.703380e-10	9.713067e-10
1.690499999222084e-05	7.983780e-10	6.598312e-10	1.134549e-09
1.788156249222085e-05	9.333002e-10	7.609059e-10	1.320890e-09
1.885812499222085e-05	1.085549e-09	8.732234e-10	1.530283e-09
1.983468749222085e-05	1.251287e-09	9.940097e-10	1.757479e-09
2.000000000000000e-05	1.280843e-09	1.015362e-09	1.797900e-09
2.009765625000000e-05	1.207944e-09	9.443413e-10	1.689480e-09
2.029296875000000e-05	1.159526e-09	8.994518e-10	1.618567e-09
2.068359375000000e-05	1.128950e-09	8.754923e-10	1.575894e-09
2.146484375000000e-05	1.072470e-09	8.312482e-10	1.497070e-09
2.341796875000000e-05	9.520472e-10	7.369694e-10	1.329007e-09
2.537109375000000e-05	8.564943e-10	6.622267e-10	1.195655e-09
2.732421875000000e-05	7.790712e-10	6.017120e-10	1.087605e-09
3.025390625000001e-05	6.870471e-10	5.298439e-10	9.591804e-10
3.318359375000001e-05	6.154118e-10	4.739464e-10	8.592100e-10
3.611328125000001e-05	5.580694e-10	4.292335e-10	7.791863e-10
3.806640625000001e-05	5.258034e-10	4.040869e-10	7.341578e-10
3.904296875000002e-05	5.111350e-10	3.926582e-10	7.136876e-10
4.001953125000002e-05	4.973286e-10	3.819030e-10	6.944201e-10
4.099609375000002e-05	4.843106e-10	3.717634e-10	6.762529e-10
4.392578125000002e-05	4.493662e-10	3.445536e-10	6.274867e-10
4.685546875000002e-05	4.195374e-10	3.213359e-10	5.858595e-10
4.936662946428574e-05	3.979688e-10	3.045547e-10	5.557596e-10
5.187779017857146e-05	3.781069e-10	2.891028e-10	5.280416e-10
5.438895089285717e-05	3.599519e-10	2.749803e-10	5.027055e-10
5.690011160714289e-05	3.435038e-10	2.621872e-10	4.797514e-10
5.941127232142861e-05	3.287625e-10	2.507235e-10	4.591792e-10
6.192243303571432e-05	3.157280e-10	2.405892e-10	4.409890e-10
6.443359375000004e-05	3.044003e-10	2.317843e-10	4.251806e-10
6.764229910714290e-05	2.909784e-10	2.213501e-10	4.064496e-10
7.085100446428576e-05	2.785469e-10	2.116854e-10	3.891008e-10
7.405970982142862e-05	2.671058e-10	2.027902e-10	3.731342e-10
7.726841517857149e-05	2.566551e-10	1.946645e-10	3.585498e-10
8.047712053571434e-05	2.471949e-10	1.873084e-10	3.453476e-10
8.368582589285721e-05	2.387251e-10	1.807216e-10	3.335276e-10
8.689453125000006e-05	2.312457e-10	1.749044e-10	3.230897e-10
8.787109375000006e-05	2.289970e-10	1.731552e-10	3.199515e-10
8.884765625000006e-05	2.268029e-10	1.714483e-10	3.168895e-10
8.982421875000006e-05	2.246614e-10	1.697823e-10	3.139011e-10
9.833426339285722e-05	2.090779e-10	1.576521e-10	2.921537e-10
1.068443080357144e-04	1.951687e-10	1.468198e-10	2.727430e-10
1.153543526785715e-04	1.829338e-10	1.372856e-10	2.556690e-10
1.238643973214287e-04	1.723733e-10	1.290494e-10	2.409318e-10
1.323744419642858e-04	1.634871e-10	1.221113e-10	2.285313e-10
1.408844866071430e-04	1.562752e-10	1.164711e-10	2.184676e-10
1.493945312500001e-04	1.507376e-10	1.121290e-10	2.107405e-10
1.823186383928573e-04	1.354869e-10	1.001129e-10	1.894622e-10
2.152427455357145e-04	1.227405e-10	9.005941e-11	1.716797e-10
2.481668526785717e-04	1.124986e-10	8.196854e-11	1.573930e-10
2.810909598214288e-04	1.047609e-10	7.584030e-11	1.466021e-10
3.140150669642860e-04	9.952771e-11	7.167469e-11	1.393070e-10
3.469391741071432e-04	9.679884e-11	6.947171e-11	1.355077e-10
3.798632812500003e-04	9.657435e-11	6.923135e-11	1.352042e-10
4.653822544642861e-04	9.468027e-11	6.772235e-11	1.325879e-10
5.509012276785719e-04	9.372457e-11	6.697533e-11	1.312849e-10
6.364202008928578e-04	9.370724e-11	6.699029e-11	1.312952e-10
7.219391741071435e-04	9.462828e-11	6.776724e-11	1.326189e-10
8.074581473214293e-04	9.648770e-11	6.930617e-11	1.352559e-10
8.929771205357152e-04	9.928548e-11	7.160709e-11	1.392062e-10
9.784960937500007e-04	1.030216e-10	7.466999e-11	1.444698e-10
9.794726562500006e-04	1.030584e-10	7.470005e-11	1.445216e-10
9.990039062499985e-04	1.038025e-10	7.530851e-11	1.455722e-10
9.999804687499984e-04	1.038401e-10	7.533930e-11	1.456254e-10
1.000000000000000e-03	1.038383e-10	7.533745e-11	1.456226e-10
