vcc	Id(Mp1)	Id(Mp2)	Id(Mp3)
1.000000000000000e+00	1.384056e-07	1.135354e-05	1.689039e-05
1.001000000000000e+00	1.406824e-07	1.137748e-05	1.692712e-05
1.002000000000000e+00	1.430287e-07	1.140140e-05	1.696384e-05
1.003000000000000e+00	1.453968e-07	1.142534e-05	1.700058e-05
1.004000000000000e+00	1.478034e-07	1.144928e-05	1.703732e-05
1.004999999999999e+00	1.502491e-07	1.147323e-05	1.707408e-05
1.005999999999999e+00	1.527345e-07	1.149717e-05	1.711085e-05
1.006999999999999e+00	1.552603e-07	1.152113e-05	1.714762e-05
1.007999999999999e+00	1.578270e-07	1.154508e-05	1.718440e-05
1.008999999999999e+00	1.604354e-07	1.156904e-05	1.722119e-05
1.009999999999999e+00	1.630860e-07	1.159301e-05	1.725799e-05
1.010999999999999e+00	1.657796e-07	1.161697e-05	1.729480e-05
1.011999999999999e+00	1.685168e-07	1.164094e-05	1.733162e-05
1.012999999999999e+00	1.712983e-07	1.166492e-05	1.736845e-05
1.013999999999998e+00	1.741248e-07	1.168889e-05	1.740528e-05
1.014999999999998e+00	1.769969e-07	1.171287e-05	1.744212e-05
1.015999999999998e+00	1.799155e-07	1.173686e-05	1.747897e-05
1.016999999999998e+00	1.828811e-07	1.176085e-05	1.751583e-05
1.017999999999998e+00	1.858946e-07	1.178484e-05	1.755269e-05
1.018999999999998e+00	1.889567e-07	1.180883e-05	1.758957e-05
1.019999999999998e+00	1.920682e-07	1.183283e-05	1.762645e-05
1.020999999999998e+00	1.952297e-07	1.185682e-05	1.766333e-05
1.021999999999998e+00	1.984422e-07	1.188083e-05	1.770023e-05
1.022999999999997e+00	2.017063e-07	1.190483e-05	1.773713e-05
1.023999999999997e+00	2.050228e-07	1.192884e-05	1.777404e-05
1.024999999999997e+00	2.083926e-07	1.195285e-05	1.781095e-05
1.025999999999997e+00	2.118165e-07	1.197686e-05	1.784787e-05
1.026999999999997e+00	2.152953e-07	1.200087e-05	1.788480e-05
1.027999999999997e+00	2.188299e-07	1.202489e-05	1.792174e-05
1.028999999999997e+00	2.224210e-07	1.204891e-05	1.795868e-05
1.029999999999997e+00	2.260696e-07	1.207293e-05	1.799563e-05
1.030999999999997e+00	2.297766e-07	1.209696e-05	1.803259e-05
1.031999999999996e+00	2.335427e-07	1.212098e-05	1.806955e-05
1.032999999999996e+00	2.373691e-07	1.214501e-05	1.810651e-05
1.033999999999996e+00	2.412564e-07	1.216904e-05	1.814348e-05
1.034999999999996e+00	2.452057e-07	1.219307e-05	1.818046e-05
1.035999999999996e+00	2.492178e-07	1.221710e-05	1.821745e-05
1.036999999999996e+00	2.532938e-07	1.224114e-05	1.825444e-05
1.037999999999996e+00	2.574346e-07	1.226517e-05	1.829143e-05
1.038999999999996e+00	2.616411e-07	1.228921e-05	1.832843e-05
1.039999999999996e+00	2.659144e-07	1.231325e-05	1.836544e-05
1.040999999999995e+00	2.702554e-07	1.233729e-05	1.840244e-05
1.041999999999995e+00	2.746651e-07	1.236133e-05	1.843946e-05
1.042999999999995e+00	2.791446e-07	1.238537e-05	1.847648e-05
1.043999999999995e+00	2.836949e-07	1.240942e-05	1.851350e-05
1.044999999999995e+00	2.883171e-07	1.243346e-05	1.855053e-05
1.045999999999995e+00	2.930121e-07	1.245751e-05	1.858756e-05
1.046999999999995e+00	2.977811e-07	1.248155e-05	1.862460e-05
1.047999999999995e+00	3.026251e-07	1.250560e-05	1.866164e-05
1.048999999999995e+00	3.075453e-07	1.252965e-05	1.869868e-05
1.049999999999994e+00	3.125428e-07	1.255369e-05	1.873573e-05
1.050999999999994e+00	3.176186e-07	1.257774e-05	1.877278e-05
1.051999999999994e+00	3.227739e-07	1.260179e-05	1.880983e-05
1.052999999999994e+00	3.280099e-07	1.262584e-05	1.884689e-05
1.053999999999994e+00	3.333277e-07	1.264988e-05	1.888395e-05
1.054999999999994e+00	3.387285e-07	1.267393e-05	1.892102e-05
1.055999999999994e+00	3.442135e-07	1.269798e-05	1.895808e-05
1.056999999999994e+00	3.497838e-07	1.272203e-05	1.899515e-05
1.057999999999994e+00	3.554408e-07	1.274607e-05	1.903222e-05
1.058999999999994e+00	3.611856e-07	1.277012e-05	1.906930e-05
1.059999999999993e+00	3.670195e-07	1.279416e-05	1.910637e-05
1.060999999999993e+00	3.729437e-07	1.281821e-05	1.914345e-05
1.061999999999993e+00	3.789595e-07	1.284225e-05	1.918053e-05
1.062999999999993e+00	3.850681e-07	1.286630e-05	1.921761e-05
1.063999999999993e+00	3.912709e-07	1.289034e-05	1.925469e-05
1.064999999999993e+00	3.975692e-07	1.291438e-05	1.929177e-05
1.065999999999993e+00	4.039643e-07	1.293842e-05	1.932885e-05
1.066999999999993e+00	4.104575e-07	1.296245e-05	1.936594e-05
1.067999999999993e+00	4.170502e-07	1.298649e-05	1.940303e-05
1.068999999999992e+00	4.237437e-07	1.301052e-05	1.944011e-05
1.069999999999992e+00	4.305394e-07	1.303456e-05	1.947720e-05
1.070999999999992e+00	4.374387e-07	1.305859e-05	1.951428e-05
1.071999999999992e+00	4.444430e-07	1.308262e-05	1.955137e-05
1.072999999999992e+00	4.515537e-07	1.310664e-05	1.958845e-05
1.073999999999992e+00	4.587722e-07	1.313067e-05	1.962554e-05
1.074999999999992e+00	4.661000e-07	1.315469e-05	1.966262e-05
1.075999999999992e+00	4.735385e-07	1.317871e-05	1.969971e-05
1.076999999999992e+00	4.810892e-07	1.320272e-05	1.973679e-05
1.077999999999991e+00	4.887535e-07	1.322674e-05	1.977387e-05
1.078999999999991e+00	4.965330e-07	1.325074e-05	1.981095e-05
1.079999999999991e+00	5.044291e-07	1.327475e-05	1.984803e-05
1.080999999999991e+00	5.124434e-07	1.329876e-05	1.988510e-05
1.081999999999991e+00	5.205773e-07	1.332276e-05	1.992218e-05
1.082999999999991e+00	5.288325e-07	1.334675e-05	1.995925e-05
1.083999999999991e+00	5.372104e-07	1.337075e-05	1.999632e-05
1.084999999999991e+00	5.457126e-07	1.339474e-05	2.003339e-05
1.085999999999991e+00	5.543407e-07	1.341872e-05	2.007045e-05
1.086999999999990e+00	5.630963e-07	1.344270e-05	2.010751e-05
1.087999999999990e+00	5.719809e-07	1.346668e-05	2.014457e-05
1.088999999999990e+00	5.809962e-07	1.349065e-05	2.018162e-05
1.089999999999990e+00	5.901438e-07	1.351462e-05	2.021867e-05
1.090999999999990e+00	5.994252e-07	1.353858e-05	2.025572e-05
1.091999999999990e+00	6.088422e-07	1.356254e-05	2.029276e-05
1.092999999999990e+00	6.183964e-07	1.358649e-05	2.032980e-05
1.093999999999990e+00	6.280895e-07	1.361044e-05	2.036683e-05
1.094999999999990e+00	6.379230e-07	1.363438e-05	2.040385e-05
1.095999999999989e+00	6.478987e-07	1.365832e-05	2.044088e-05
1.096999999999989e+00	6.580183e-07	1.368225e-05	2.047789e-05
1.097999999999989e+00	6.682834e-07	1.370618e-05	2.051490e-05
1.098999999999989e+00	6.786958e-07	1.373010e-05	2.055190e-05
1.099999999999989e+00	6.892571e-07	1.375401e-05	2.058890e-05
1.100999999999989e+00	6.999691e-07	1.377792e-05	2.062590e-05
1.101999999999989e+00	7.108335e-07	1.380182e-05	2.066288e-05
1.102999999999989e+00	7.218521e-07	1.382571e-05	2.069986e-05
1.103999999999989e+00	7.330265e-07	1.384960e-05	2.073683e-05
1.104999999999988e+00	7.443585e-07	1.387348e-05	2.077379e-05
1.105999999999988e+00	7.558500e-07	1.389735e-05	2.081075e-05
1.106999999999988e+00	7.675025e-07	1.392122e-05	2.084770e-05
1.107999999999988e+00	7.793179e-07	1.394508e-05	2.088463e-05
1.108999999999988e+00	7.912980e-07	1.396893e-05	2.092157e-05
1.109999999999988e+00	8.034445e-07	1.399277e-05	2.095849e-05
1.110999999999988e+00	8.157593e-07	1.401661e-05	2.099540e-05
1.111999999999988e+00	8.282440e-07	1.404043e-05	2.103230e-05
1.112999999999988e+00	8.409006e-07	1.406425e-05	2.106920e-05
1.113999999999987e+00	8.537307e-07	1.408806e-05	2.110608e-05
1.114999999999987e+00	8.667362e-07	1.411186e-05	2.114295e-05
1.115999999999987e+00	8.799189e-07	1.413565e-05	2.117982e-05
1.116999999999987e+00	8.932806e-07	1.415944e-05	2.121667e-05
1.117999999999987e+00	9.068230e-07	1.418321e-05	2.125351e-05
1.118999999999987e+00	9.205481e-07	1.420697e-05	2.129034e-05
1.119999999999987e+00	9.344575e-07	1.423073e-05	2.132716e-05
1.120999999999987e+00	9.485531e-07	1.425447e-05	2.136397e-05
1.121999999999987e+00	9.628367e-07	1.427820e-05	2.140076e-05
1.122999999999986e+00	9.773102e-07	1.430193e-05	2.143754e-05
1.123999999999986e+00	9.919751e-07	1.432564e-05	2.147431e-05
1.124999999999986e+00	1.006833e-06	1.434934e-05	2.151107e-05
1.125999999999986e+00	1.021887e-06	1.437303e-05	2.154781e-05
1.126999999999986e+00	1.037138e-06	1.439671e-05	2.158454e-05
1.127999999999986e+00	1.052587e-06	1.442038e-05	2.162126e-05
1.128999999999986e+00	1.068237e-06	1.444404e-05	2.165796e-05
1.129999999999986e+00	1.084090e-06	1.446769e-05	2.169464e-05
1.130999999999986e+00	1.100147e-06	1.449132e-05	2.173131e-05
1.131999999999985e+00	1.116409e-06	1.451494e-05	2.176797e-05
1.132999999999985e+00	1.132879e-06	1.453855e-05	2.180461e-05
1.133999999999985e+00	1.149559e-06	1.456215e-05	2.184124e-05
1.134999999999985e+00	1.166450e-06	1.458573e-05	2.187784e-05
1.135999999999985e+00	1.183554e-06	1.460930e-05	2.191443e-05
1.136999999999985e+00	1.200873e-06	1.463286e-05	2.195101e-05
1.137999999999985e+00	1.218409e-06	1.465640e-05	2.198757e-05
1.138999999999985e+00	1.236162e-06	1.467993e-05	2.202411e-05
1.139999999999985e+00	1.254136e-06	1.470345e-05	2.206063e-05
1.140999999999984e+00	1.272331e-06	1.472695e-05	2.209713e-05
1.141999999999984e+00	1.290750e-06	1.475044e-05	2.213362e-05
1.142999999999984e+00	1.309394e-06	1.477391e-05	2.217009e-05
1.143999999999984e+00	1.328264e-06	1.479737e-05	2.220654e-05
1.144999999999984e+00	1.347363e-06	1.482082e-05	2.224296e-05
1.145999999999984e+00	1.366692e-06	1.484425e-05	2.227937e-05
1.146999999999984e+00	1.386253e-06	1.486766e-05	2.231576e-05
1.147999999999984e+00	1.406047e-06	1.489106e-05	2.235213e-05
1.148999999999984e+00	1.426076e-06	1.491444e-05	2.238848e-05
1.149999999999983e+00	1.446342e-06	1.493780e-05	2.242480e-05
1.150999999999983e+00	1.466846e-06	1.496115e-05	2.246111e-05
1.151999999999983e+00	1.487590e-06	1.498449e-05	2.249739e-05
1.152999999999983e+00	1.508575e-06	1.500780e-05	2.253365e-05
1.153999999999983e+00	1.529802e-06	1.503110e-05	2.256989e-05
1.154999999999983e+00	1.551275e-06	1.505438e-05	2.260610e-05
1.155999999999983e+00	1.572993e-06	1.507765e-05	2.264229e-05
1.156999999999983e+00	1.594958e-06	1.510089e-05	2.267846e-05
1.157999999999983e+00	1.617172e-06	1.512412e-05	2.271460e-05
1.158999999999982e+00	1.639637e-06	1.514733e-05	2.275072e-05
1.159999999999982e+00	1.662353e-06	1.517052e-05	2.278682e-05
1.160999999999982e+00	1.685322e-06	1.519369e-05	2.282289e-05
1.161999999999982e+00	1.708545e-06	1.521685e-05	2.285893e-05
1.162999999999982e+00	1.732025e-06	1.523998e-05	2.289495e-05
1.163999999999982e+00	1.755762e-06	1.526310e-05	2.293094e-05
1.164999999999982e+00	1.779757e-06	1.528619e-05	2.296690e-05
1.165999999999982e+00	1.804012e-06	1.530927e-05	2.300284e-05
1.166999999999982e+00	1.828527e-06	1.533233e-05	2.303875e-05
1.167999999999981e+00	1.853305e-06	1.535536e-05	2.307464e-05
1.168999999999981e+00	1.878347e-06	1.537837e-05	2.311049e-05
1.169999999999981e+00	1.903653e-06	1.540137e-05	2.314632e-05
1.170999999999981e+00	1.929225e-06	1.542434e-05	2.318211e-05
1.171999999999981e+00	1.955064e-06	1.544729e-05	2.321788e-05
1.172999999999981e+00	1.981171e-06	1.547022e-05	2.325362e-05
1.173999999999981e+00	2.007548e-06	1.549313e-05	2.328933e-05
1.174999999999981e+00	2.034194e-06	1.551601e-05	2.332501e-05
1.175999999999981e+00	2.061112e-06	1.553888e-05	2.336066e-05
1.176999999999981e+00	2.088302e-06	1.556172e-05	2.339627e-05
1.177999999999980e+00	2.115765e-06	1.558453e-05	2.343186e-05
1.178999999999980e+00	2.143502e-06	1.560733e-05	2.346741e-05
1.179999999999980e+00	2.171514e-06	1.563010e-05	2.350293e-05
1.180999999999980e+00	2.199803e-06	1.565284e-05	2.353842e-05
1.181999999999980e+00	2.228367e-06	1.567557e-05	2.357388e-05
1.182999999999980e+00	2.257210e-06	1.569827e-05	2.360930e-05
1.183999999999980e+00	2.286331e-06	1.572094e-05	2.364468e-05
1.184999999999980e+00	2.315730e-06	1.574359e-05	2.368004e-05
1.185999999999980e+00	2.345410e-06	1.576621e-05	2.371536e-05
1.186999999999979e+00	2.375370e-06	1.578881e-05	2.375064e-05
1.187999999999979e+00	2.405611e-06	1.581139e-05	2.378589e-05
1.188999999999979e+00	2.436133e-06	1.583393e-05	2.382110e-05
1.189999999999979e+00	2.466938e-06	1.585645e-05	2.385628e-05
1.190999999999979e+00	2.498026e-06	1.587895e-05	2.389142e-05
1.191999999999979e+00	2.529397e-06	1.590142e-05	2.392652e-05
1.192999999999979e+00	2.561052e-06	1.592386e-05	2.396159e-05
1.193999999999979e+00	2.592991e-06	1.594627e-05	2.399662e-05
1.194999999999979e+00	2.625214e-06	1.596866e-05	2.403161e-05
1.195999999999978e+00	2.657723e-06	1.599102e-05	2.406656e-05
1.196999999999978e+00	2.690517e-06	1.601335e-05	2.410147e-05
1.197999999999978e+00	2.723596e-06	1.603566e-05	2.413634e-05
1.198999999999978e+00	2.756961e-06	1.605793e-05	2.417118e-05
1.199999999999978e+00	2.790612e-06	1.608018e-05	2.420597e-05
1.200999999999978e+00	2.824549e-06	1.610240e-05	2.424072e-05
1.201999999999978e+00	2.858772e-06	1.612458e-05	2.427543e-05
1.202999999999978e+00	2.893282e-06	1.614674e-05	2.431010e-05
1.203999999999978e+00	2.928078e-06	1.616887e-05	2.434473e-05
1.204999999999977e+00	2.963160e-06	1.619097e-05	2.437931e-05
1.205999999999977e+00	2.998529e-06	1.621304e-05	2.441386e-05
1.206999999999977e+00	3.034184e-06	1.623508e-05	2.444836e-05
1.207999999999977e+00	3.070125e-06	1.625709e-05	2.448282e-05
1.208999999999977e+00	3.106352e-06	1.627906e-05	2.451723e-05
1.209999999999977e+00	3.142866e-06	1.630101e-05	2.455159e-05
1.210999999999977e+00	3.179664e-06	1.632292e-05	2.458592e-05
1.211999999999977e+00	3.216748e-06	1.634480e-05	2.462020e-05
1.212999999999977e+00	3.254117e-06	1.636665e-05	2.465443e-05
1.213999999999976e+00	3.291771e-06	1.638847e-05	2.468862e-05
1.214999999999976e+00	3.329709e-06	1.641025e-05	2.472276e-05
1.215999999999976e+00	3.367931e-06	1.643200e-05	2.475686e-05
1.216999999999976e+00	3.406437e-06	1.645372e-05	2.479090e-05
1.217999999999976e+00	3.445225e-06	1.647541e-05	2.482490e-05
1.218999999999976e+00	3.484296e-06	1.649706e-05	2.485885e-05
1.219999999999976e+00	3.523648e-06	1.651867e-05	2.489276e-05
1.220999999999976e+00	3.563281e-06	1.654025e-05	2.492661e-05
1.221999999999976e+00	3.603195e-06	1.656180e-05	2.496042e-05
1.222999999999975e+00	3.643389e-06	1.658331e-05	2.499418e-05
1.223999999999975e+00	3.683861e-06	1.660479e-05	2.502788e-05
1.224999999999975e+00	3.724612e-06	1.662623e-05	2.506154e-05
1.225999999999975e+00	3.765640e-06	1.664764e-05	2.509514e-05
1.226999999999975e+00	3.806944e-06	1.666901e-05	2.512870e-05
1.227999999999975e+00	3.848524e-06	1.669034e-05	2.516220e-05
1.228999999999975e+00	3.890379e-06	1.671164e-05	2.519565e-05
1.229999999999975e+00	3.932506e-06	1.673290e-05	2.522905e-05
1.230999999999975e+00	3.974907e-06	1.675413e-05	2.526240e-05
1.231999999999974e+00	4.017579e-06	1.677532e-05	2.529569e-05
1.232999999999974e+00	4.060521e-06	1.679646e-05	2.532893e-05
1.233999999999974e+00	4.103733e-06	1.681758e-05	2.536211e-05
1.234999999999974e+00	4.147213e-06	1.683865e-05	2.539524e-05
1.235999999999974e+00	4.190959e-06	1.685968e-05	2.542832e-05
1.236999999999974e+00	4.234971e-06	1.688068e-05	2.546134e-05
1.237999999999974e+00	4.279246e-06	1.690164e-05	2.549430e-05
1.238999999999974e+00	4.323785e-06	1.692256e-05	2.552721e-05
1.239999999999974e+00	4.368585e-06	1.694344e-05	2.556006e-05
1.240999999999973e+00	4.413645e-06	1.696427e-05	2.559286e-05
1.241999999999973e+00	4.458964e-06	1.698507e-05	2.562560e-05
1.242999999999973e+00	4.504539e-06	1.700583e-05	2.565828e-05
1.243999999999973e+00	4.550370e-06	1.702655e-05	2.569090e-05
1.244999999999973e+00	4.596455e-06	1.704723e-05	2.572346e-05
1.245999999999973e+00	4.642793e-06	1.706787e-05	2.575597e-05
1.246999999999973e+00	4.689380e-06	1.708846e-05	2.578842e-05
1.247999999999973e+00	4.736217e-06	1.710902e-05	2.582080e-05
1.248999999999973e+00	4.783301e-06	1.712953e-05	2.585313e-05
1.249999999999972e+00	4.830631e-06	1.715000e-05	2.588540e-05
1.250999999999972e+00	4.878204e-06	1.717043e-05	2.591760e-05
1.251999999999972e+00	4.926019e-06	1.719081e-05	2.594974e-05
1.252999999999972e+00	4.974074e-06	1.721116e-05	2.598183e-05
1.253999999999972e+00	5.022367e-06	1.723146e-05	2.601385e-05
1.254999999999972e+00	5.070896e-06	1.725171e-05	2.604581e-05
1.255999999999972e+00	5.119659e-06	1.727193e-05	2.607770e-05
1.256999999999972e+00	5.168655e-06	1.729210e-05	2.610954e-05
1.257999999999972e+00	5.217881e-06	1.731222e-05	2.614130e-05
1.258999999999971e+00	5.267334e-06	1.733230e-05	2.617301e-05
1.259999999999971e+00	5.317014e-06	1.735234e-05	2.620465e-05
1.260999999999971e+00	5.366918e-06	1.737233e-05	2.623623e-05
1.261999999999971e+00	5.417044e-06	1.739227e-05	2.626774e-05
1.262999999999971e+00	5.467388e-06	1.741218e-05	2.629918e-05
1.263999999999971e+00	5.517951e-06	1.743203e-05	2.633056e-05
1.264999999999971e+00	5.568728e-06	1.745184e-05	2.636188e-05
1.265999999999971e+00	5.619719e-06	1.747160e-05	2.639312e-05
1.266999999999971e+00	5.670920e-06	1.749132e-05	2.642430e-05
1.267999999999970e+00	5.722328e-06	1.751099e-05	2.645542e-05
1.268999999999970e+00	5.773943e-06	1.753062e-05	2.648646e-05
1.269999999999970e+00	5.825761e-06	1.755019e-05	2.651744e-05
1.270999999999970e+00	5.877781e-06	1.756972e-05	2.654835e-05
1.271999999999970e+00	5.929999e-06	1.758921e-05	2.657919e-05
1.272999999999970e+00	5.982413e-06	1.760864e-05	2.660996e-05
1.273999999999970e+00	6.035021e-06	1.762803e-05	2.664066e-05
1.274999999999970e+00	6.087820e-06	1.764737e-05	2.667129e-05
1.275999999999970e+00	6.140808e-06	1.766665e-05	2.670185e-05
1.276999999999969e+00	6.193981e-06	1.768590e-05	2.673234e-05
1.277999999999969e+00	6.247339e-06	1.770509e-05	2.676277e-05
1.278999999999969e+00	6.300877e-06	1.772423e-05	2.679311e-05
1.279999999999969e+00	6.354593e-06	1.774332e-05	2.682339e-05
1.280999999999969e+00	6.408485e-06	1.776237e-05	2.685360e-05
1.281999999999969e+00	6.462550e-06	1.778136e-05	2.688373e-05
1.282999999999969e+00	6.516786e-06	1.780031e-05	2.691379e-05
1.283999999999969e+00	6.571188e-06	1.781920e-05	2.694378e-05
1.284999999999969e+00	6.625756e-06	1.783805e-05	2.697369e-05
1.285999999999969e+00	6.680486e-06	1.785684e-05	2.700353e-05
1.286999999999968e+00	6.735375e-06	1.787558e-05	2.703330e-05
1.287999999999968e+00	6.790421e-06	1.789427e-05	2.706299e-05
1.288999999999968e+00	6.845621e-06	1.791291e-05	2.709261e-05
1.289999999999968e+00	6.900972e-06	1.793150e-05	2.712215e-05
1.290999999999968e+00	6.956470e-06	1.795003e-05	2.715162e-05
1.291999999999968e+00	7.012115e-06	1.796852e-05	2.718101e-05
1.292999999999968e+00	7.067902e-06	1.798695e-05	2.721032e-05
1.293999999999968e+00	7.123828e-06	1.800533e-05	2.723956e-05
1.294999999999968e+00	7.179891e-06	1.802366e-05	2.726872e-05
1.295999999999967e+00	7.236088e-06	1.804193e-05	2.729781e-05
1.296999999999967e+00	7.292416e-06	1.806015e-05	2.732682e-05
1.297999999999967e+00	7.348872e-06	1.807832e-05	2.735575e-05
1.298999999999967e+00	7.405453e-06	1.809643e-05	2.738461e-05
1.299999999999967e+00	7.462157e-06	1.811450e-05	2.741338e-05
1.300999999999967e+00	7.518979e-06	1.813250e-05	2.744208e-05
1.301999999999967e+00	7.575919e-06	1.815046e-05	2.747070e-05
1.302999999999967e+00	7.632971e-06	1.816836e-05	2.749924e-05
1.303999999999967e+00	7.690133e-06	1.818620e-05	2.752770e-05
1.304999999999966e+00	7.747404e-06	1.820399e-05	2.755608e-05
1.305999999999966e+00	7.804779e-06	1.822173e-05	2.758438e-05
1.306999999999966e+00	7.862254e-06	1.823941e-05	2.761260e-05
1.307999999999966e+00	7.919829e-06	1.825703e-05	2.764074e-05
1.308999999999966e+00	7.977499e-06	1.827460e-05	2.766880e-05
1.309999999999966e+00	8.035262e-06	1.829212e-05	2.769678e-05
1.310999999999966e+00	8.093114e-06	1.830958e-05	2.772468e-05
1.311999999999966e+00	8.151053e-06	1.832698e-05	2.775250e-05
1.312999999999966e+00	8.209076e-06	1.834433e-05	2.778023e-05
1.313999999999965e+00	8.267178e-06	1.836162e-05	2.780788e-05
1.314999999999965e+00	8.325358e-06	1.837886e-05	2.783546e-05
1.315999999999965e+00	8.383613e-06	1.839604e-05	2.786294e-05
1.316999999999965e+00	8.441939e-06	1.841316e-05	2.789035e-05
1.317999999999965e+00	8.500334e-06	1.843023e-05	2.791767e-05
1.318999999999965e+00	8.558794e-06	1.844724e-05	2.794492e-05
1.319999999999965e+00	8.617317e-06	1.846419e-05	2.797207e-05
1.320999999999965e+00	8.675899e-06	1.848109e-05	2.799915e-05
