vds	V(n001)	V(n002)	I(Vds)	I(Vgs)	Ib(M1)	Id(M1)	Ig(M1)	Is(M1)
Step Information: Vgs=500m  (Step: 1/5)
0.000000000000000e+00	0.000000e+00	5.000000e-01	0.000000e+00	0.000000e+00	0.000000e+00	0.000000e+00	0.000000e+00	-0.000000e+00
1.000000000000000e-03	1.000000e-03	5.000000e-01	-9.730920e-07	0.000000e+00	-1.379256e-15	9.730920e-07	0.000000e+00	-9.730920e-07
2.000000000000000e-03	2.000000e-03	5.000000e-01	-1.933867e-06	0.000000e+00	-2.744129e-15	1.933867e-06	0.000000e+00	-1.933867e-06
3.000000000000000e-03	3.000000e-03	5.000000e-01	-2.882344e-06	0.000000e+00	-4.095163e-15	2.882344e-06	0.000000e+00	-2.882344e-06
4.000000000000000e-03	4.000000e-03	5.000000e-01	-3.818543e-06	0.000000e+00	-5.432885e-15	3.818543e-06	0.000000e+00	-3.818543e-06
5.000000000000000e-03	5.000000e-03	5.000000e-01	-4.742483e-06	0.000000e+00	-6.757797e-15	4.742483e-06	0.000000e+00	-4.742483e-06
6.000000000000000e-03	6.000000e-03	5.000000e-01	-5.654186e-06	0.000000e+00	-8.070388e-15	5.654186e-06	0.000000e+00	-5.654186e-06
7.000000000000000e-03	7.000000e-03	5.000000e-01	-6.553674e-06	0.000000e+00	-9.371124e-15	6.553674e-06	0.000000e+00	-6.553674e-06
8.000000000000000e-03	8.000000e-03	5.000000e-01	-7.440969e-06	0.000000e+00	-1.066045e-14	7.440969e-06	0.000000e+00	-7.440969e-06
9.000000000000001e-03	9.000000e-03	5.000000e-01	-8.316093e-06	0.000000e+00	-1.193881e-14	8.316093e-06	0.000000e+00	-8.316093e-06
1.000000000000000e-02	1.000000e-02	5.000000e-01	-9.179072e-06	0.000000e+00	-1.320661e-14	9.179072e-06	0.000000e+00	-9.179072e-06
1.100000000000000e-02	1.100000e-02	5.000000e-01	-1.002993e-05	0.000000e+00	-1.446425e-14	1.002993e-05	0.000000e+00	-1.002993e-05
1.200000000000000e-02	1.200000e-02	5.000000e-01	-1.086869e-05	0.000000e+00	-1.571213e-14	1.086869e-05	0.000000e+00	-1.086869e-05
1.300000000000000e-02	1.300000e-02	5.000000e-01	-1.169538e-05	0.000000e+00	-1.695060e-14	1.169538e-05	0.000000e+00	-1.169538e-05
1.400000000000001e-02	1.400000e-02	5.000000e-01	-1.251003e-05	0.000000e+00	-1.818002e-14	1.251003e-05	0.000000e+00	-1.251003e-05
1.500000000000001e-02	1.500000e-02	5.000000e-01	-1.331267e-05	0.000000e+00	-1.940075e-14	1.331267e-05	0.000000e+00	-1.331267e-05
1.600000000000001e-02	1.600000e-02	5.000000e-01	-1.410332e-05	0.000000e+00	-2.061311e-14	1.410332e-05	0.000000e+00	-1.410332e-05
1.700000000000001e-02	1.700000e-02	5.000000e-01	-1.488202e-05	0.000000e+00	-2.181741e-14	1.488202e-05	0.000000e+00	-1.488202e-05
1.800000000000001e-02	1.800000e-02	5.000000e-01	-1.564880e-05	0.000000e+00	-2.301396e-14	1.564880e-05	0.000000e+00	-1.564880e-05
1.900000000000001e-02	1.900000e-02	5.000000e-01	-1.640369e-05	0.000000e+00	-2.420306e-14	1.640369e-05	0.000000e+00	-1.640369e-05
2.000000000000001e-02	2.000000e-02	5.000000e-01	-1.714672e-05	0.000000e+00	-2.538498e-14	1.714672e-05	0.000000e+00	-1.714672e-05
2.100000000000001e-02	2.100000e-02	5.000000e-01	-1.787793e-05	0.000000e+00	-2.656001e-14	1.787793e-05	0.000000e+00	-1.787793e-05
2.200000000000001e-02	2.200000e-02	5.000000e-01	-1.859736e-05	0.000000e+00	-2.772840e-14	1.859736e-05	0.000000e+00	-1.859736e-05
2.300000000000001e-02	2.300000e-02	5.000000e-01	-1.930505e-05	0.000000e+00	-2.889040e-14	1.930505e-05	0.000000e+00	-1.930505e-05
2.400000000000001e-02	2.400000e-02	5.000000e-01	-2.000103e-05	0.000000e+00	-3.004626e-14	2.000103e-05	0.000000e+00	-2.000103e-05
2.500000000000002e-02	2.500000e-02	5.000000e-01	-2.068534e-05	0.000000e+00	-3.119621e-14	2.068534e-05	0.000000e+00	-2.068534e-05
2.600000000000002e-02	2.600000e-02	5.000000e-01	-2.135804e-05	0.000000e+00	-3.234047e-14	2.135804e-05	0.000000e+00	-2.135804e-05
2.700000000000002e-02	2.700000e-02	5.000000e-01	-2.201915e-05	0.000000e+00	-3.347926e-14	2.201915e-05	0.000000e+00	-2.201915e-05
2.800000000000002e-02	2.800000e-02	5.000000e-01	-2.266873e-05	0.000000e+00	-3.461279e-14	2.266873e-05	0.000000e+00	-2.266873e-05
2.900000000000002e-02	2.900000e-02	5.000000e-01	-2.330683e-05	0.000000e+00	-3.574125e-14	2.330683e-05	0.000000e+00	-2.330683e-05
3.000000000000002e-02	3.000000e-02	5.000000e-01	-2.393349e-05	0.000000e+00	-3.686484e-14	2.393349e-05	0.000000e+00	-2.393349e-05
3.100000000000002e-02	3.100000e-02	5.000000e-01	-2.454877e-05	0.000000e+00	-3.798374e-14	2.454877e-05	0.000000e+00	-2.454877e-05
3.200000000000002e-02	3.200000e-02	5.000000e-01	-2.515272e-05	0.000000e+00	-3.909814e-14	2.515272e-05	0.000000e+00	-2.515272e-05
3.300000000000002e-02	3.300000e-02	5.000000e-01	-2.574539e-05	0.000000e+00	-4.020819e-14	2.574539e-05	0.000000e+00	-2.574539e-05
3.400000000000002e-02	3.400000e-02	5.000000e-01	-2.632684e-05	0.000000e+00	-4.131407e-14	2.632684e-05	0.000000e+00	-2.632684e-05
3.500000000000002e-02	3.500000e-02	5.000000e-01	-2.689714e-05	0.000000e+00	-4.241594e-14	2.689714e-05	0.000000e+00	-2.689714e-05
3.600000000000003e-02	3.600000e-02	5.000000e-01	-2.745634e-05	0.000000e+00	-4.351394e-14	2.745634e-05	0.000000e+00	-2.745634e-05
3.700000000000003e-02	3.700000e-02	5.000000e-01	-2.800450e-05	0.000000e+00	-4.460822e-14	2.800450e-05	0.000000e+00	-2.800450e-05
3.800000000000003e-02	3.800000e-02	5.000000e-01	-2.854170e-05	0.000000e+00	-4.569894e-14	2.854170e-05	0.000000e+00	-2.854170e-05
3.900000000000003e-02	3.900000e-02	5.000000e-01	-2.906800e-05	0.000000e+00	-4.678620e-14	2.906800e-05	0.000000e+00	-2.906800e-05
4.000000000000003e-02	4.000000e-02	5.000000e-01	-2.958347e-05	0.000000e+00	-4.787017e-14	2.958347e-05	0.000000e+00	-2.958347e-05
4.100000000000003e-02	4.100000e-02	5.000000e-01	-3.008819e-05	0.000000e+00	-4.895094e-14	3.008819e-05	0.000000e+00	-3.008819e-05
4.200000000000003e-02	4.200000e-02	5.000000e-01	-3.058224e-05	0.000000e+00	-5.002865e-14	3.058224e-05	0.000000e+00	-3.058224e-05
4.300000000000003e-02	4.300000e-02	5.000000e-01	-3.106569e-05	0.000000e+00	-5.110342e-14	3.106569e-05	0.000000e+00	-3.106569e-05
4.400000000000003e-02	4.400000e-02	5.000000e-01	-3.153863e-05	0.000000e+00	-5.217535e-14	3.153863e-05	0.000000e+00	-3.153863e-05
4.500000000000003e-02	4.500000e-02	5.000000e-01	-3.200114e-05	0.000000e+00	-5.324455e-14	3.200114e-05	0.000000e+00	-3.200114e-05
4.600000000000003e-02	4.600000e-02	5.000000e-01	-3.245331e-05	0.000000e+00	-5.431112e-14	3.245331e-05	0.000000e+00	-3.245331e-05
4.700000000000003e-02	4.700000e-02	5.000000e-01	-3.289523e-05	0.000000e+00	-5.537518e-14	3.289523e-05	0.000000e+00	-3.289523e-05
4.800000000000004e-02	4.800000e-02	5.000000e-01	-3.332699e-05	0.000000e+00	-5.643680e-14	3.332699e-05	0.000000e+00	-3.332699e-05
4.900000000000004e-02	4.900000e-02	5.000000e-01	-3.374870e-05	0.000000e+00	-5.749608e-14	3.374870e-05	0.000000e+00	-3.374870e-05
5.000000000000004e-02	5.000000e-02	5.000000e-01	-3.416045e-05	0.000000e+00	-5.855312e-14	3.416045e-05	0.000000e+00	-3.416045e-05
5.100000000000004e-02	5.100000e-02	5.000000e-01	-3.456234e-05	0.000000e+00	-5.960799e-14	3.456234e-05	0.000000e+00	-3.456234e-05
5.200000000000004e-02	5.200000e-02	5.000000e-01	-3.495448e-05	0.000000e+00	-6.066079e-14	3.495448e-05	0.000000e+00	-3.495448e-05
5.300000000000004e-02	5.300000e-02	5.000000e-01	-3.533698e-05	0.000000e+00	-6.171157e-14	3.533698e-05	0.000000e+00	-3.533698e-05
5.400000000000004e-02	5.400000e-02	5.000000e-01	-3.570996e-05	0.000000e+00	-6.276044e-14	3.570996e-05	0.000000e+00	-3.570996e-05
5.500000000000004e-02	5.500000e-02	5.000000e-01	-3.607352e-05	0.000000e+00	-6.380745e-14	3.607352e-05	0.000000e+00	-3.607352e-05
5.600000000000004e-02	5.600000e-02	5.000000e-01	-3.642780e-05	0.000000e+00	-6.485268e-14	3.642780e-05	0.000000e+00	-3.642780e-05
5.700000000000004e-02	5.700000e-02	5.000000e-01	-3.677290e-05	0.000000e+00	-6.589620e-14	3.677290e-05	0.000000e+00	-3.677290e-05
5.800000000000004e-02	5.800000e-02	5.000000e-01	-3.710896e-05	0.000000e+00	-6.693805e-14	3.710896e-05	0.000000e+00	-3.710896e-05
5.900000000000005e-02	5.900000e-02	5.000000e-01	-3.743610e-05	0.000000e+00	-6.797833e-14	3.743610e-05	0.000000e+00	-3.743610e-05
6.000000000000005e-02	6.000000e-02	5.000000e-01	-3.775445e-05	0.000000e+00	-6.901708e-14	3.775445e-05	0.000000e+00	-3.775445e-05
6.100000000000005e-02	6.100000e-02	5.000000e-01	-3.806415e-05	0.000000e+00	-7.005435e-14	3.806415e-05	0.000000e+00	-3.806415e-05
6.200000000000005e-02	6.200000e-02	5.000000e-01	-3.836533e-05	0.000000e+00	-7.109022e-14	3.836533e-05	0.000000e+00	-3.836533e-05
6.300000000000004e-02	6.300000e-02	5.000000e-01	-3.865814e-05	0.000000e+00	-7.212473e-14	3.865814e-05	0.000000e+00	-3.865814e-05
6.400000000000004e-02	6.400000e-02	5.000000e-01	-3.894270e-05	0.000000e+00	-7.315792e-14	3.894270e-05	0.000000e+00	-3.894270e-05
6.500000000000004e-02	6.500000e-02	5.000000e-01	-3.921918e-05	0.000000e+00	-7.418985e-14	3.921918e-05	0.000000e+00	-3.921918e-05
6.600000000000004e-02	6.600000e-02	5.000000e-01	-3.948771e-05	0.000000e+00	-7.522058e-14	3.948771e-05	0.000000e+00	-3.948771e-05
6.700000000000005e-02	6.700000e-02	5.000000e-01	-3.974844e-05	0.000000e+00	-7.625014e-14	3.974844e-05	0.000000e+00	-3.974844e-05
6.800000000000005e-02	6.800000e-02	5.000000e-01	-4.000153e-05	0.000000e+00	-7.727858e-14	4.000153e-05	0.000000e+00	-4.000153e-05
6.900000000000005e-02	6.900000e-02	5.000000e-01	-4.024712e-05	0.000000e+00	-7.830594e-14	4.024712e-05	0.000000e+00	-4.024712e-05
7.000000000000005e-02	7.000000e-02	5.000000e-01	-4.048536e-05	0.000000e+00	-7.933227e-14	4.048536e-05	0.000000e+00	-4.048536e-05
7.100000000000005e-02	7.100000e-02	5.000000e-01	-4.071642e-05	0.000000e+00	-8.035759e-14	4.071642e-05	0.000000e+00	-4.071642e-05
7.200000000000005e-02	7.200000e-02	5.000000e-01	-4.094045e-05	0.000000e+00	-8.138195e-14	4.094045e-05	0.000000e+00	-4.094045e-05
7.300000000000005e-02	7.300000e-02	5.000000e-01	-4.115761e-05	0.000000e+00	-8.240539e-14	4.115761e-05	0.000000e+00	-4.115761e-05
7.400000000000005e-02	7.400000e-02	5.000000e-01	-4.136805e-05	0.000000e+00	-8.342794e-14	4.136805e-05	0.000000e+00	-4.136805e-05
7.500000000000005e-02	7.500000e-02	5.000000e-01	-4.157194e-05	0.000000e+00	-8.444964e-14	4.157194e-05	0.000000e+00	-4.157194e-05
7.600000000000005e-02	7.600000e-02	5.000000e-01	-4.176943e-05	0.000000e+00	-8.547051e-14	4.176943e-05	0.000000e+00	-4.176943e-05
7.700000000000005e-02	7.700000e-02	5.000000e-01	-4.196068e-05	0.000000e+00	-8.649059e-14	4.196068e-05	0.000000e+00	-4.196068e-05
7.800000000000006e-02	7.800000e-02	5.000000e-01	-4.214585e-05	0.000000e+00	-8.750991e-14	4.214585e-05	0.000000e+00	-4.214585e-05
7.900000000000006e-02	7.900000e-02	5.000000e-01	-4.232510e-05	0.000000e+00	-8.852850e-14	4.232510e-05	0.000000e+00	-4.232510e-05
8.000000000000006e-02	8.000000e-02	5.000000e-01	-4.249859e-05	0.000000e+00	-8.954638e-14	4.249859e-05	0.000000e+00	-4.249859e-05
8.100000000000006e-02	8.100000e-02	5.000000e-01	-4.266647e-05	0.000000e+00	-9.056358e-14	4.266647e-05	0.000000e+00	-4.266647e-05
8.200000000000006e-02	8.200000e-02	5.000000e-01	-4.282891e-05	0.000000e+00	-9.158013e-14	4.282891e-05	0.000000e+00	-4.282891e-05
8.300000000000006e-02	8.300000e-02	5.000000e-01	-4.298605e-05	0.000000e+00	-9.259606e-14	4.298605e-05	0.000000e+00	-4.298605e-05
8.400000000000006e-02	8.400000e-02	5.000000e-01	-4.313805e-05	0.000000e+00	-9.361138e-14	4.313805e-05	0.000000e+00	-4.313805e-05
8.500000000000006e-02	8.500000e-02	5.000000e-01	-4.328506e-05	0.000000e+00	-9.462612e-14	4.328506e-05	0.000000e+00	-4.328506e-05
8.600000000000006e-02	8.600000e-02	5.000000e-01	-4.342723e-05	0.000000e+00	-9.564030e-14	4.342723e-05	0.000000e+00	-4.342723e-05
8.700000000000006e-02	8.700000e-02	5.000000e-01	-4.356472e-05	0.000000e+00	-9.665394e-14	4.356472e-05	0.000000e+00	-4.356472e-05
8.800000000000006e-02	8.800000e-02	5.000000e-01	-4.369766e-05	0.000000e+00	-9.766707e-14	4.369766e-05	0.000000e+00	-4.369766e-05
8.900000000000007e-02	8.900000e-02	5.000000e-01	-4.382620e-05	0.000000e+00	-9.867969e-14	4.382620e-05	0.000000e+00	-4.382620e-05
9.000000000000007e-02	9.000000e-02	5.000000e-01	-4.395048e-05	0.000000e+00	-9.969184e-14	4.395048e-05	0.000000e+00	-4.395048e-05
9.100000000000007e-02	9.100000e-02	5.000000e-01	-4.407065e-05	0.000000e+00	-1.007035e-13	4.407065e-05	0.000000e+00	-4.407065e-05
9.200000000000007e-02	9.200000e-02	5.000000e-01	-4.418683e-05	0.000000e+00	-1.017148e-13	4.418683e-05	0.000000e+00	-4.418683e-05
9.300000000000007e-02	9.300000e-02	5.000000e-01	-4.429916e-05	0.000000e+00	-1.027256e-13	4.429916e-05	0.000000e+00	-4.429916e-05
9.400000000000007e-02	9.400000e-02	5.000000e-01	-4.440778e-05	0.000000e+00	-1.037360e-13	4.440778e-05	0.000000e+00	-4.440778e-05
9.500000000000007e-02	9.500000e-02	5.000000e-01	-4.451280e-05	0.000000e+00	-1.047460e-13	4.451280e-05	0.000000e+00	-4.451280e-05
9.600000000000007e-02	9.600000e-02	5.000000e-01	-4.461435e-05	0.000000e+00	-1.057556e-13	4.461435e-05	0.000000e+00	-4.461435e-05
9.700000000000007e-02	9.700000e-02	5.000000e-01	-4.471256e-05	0.000000e+00	-1.067649e-13	4.471256e-05	0.000000e+00	-4.471256e-05
9.800000000000007e-02	9.800000e-02	5.000000e-01	-4.480754e-05	0.000000e+00	-1.077738e-13	4.480754e-05	0.000000e+00	-4.480754e-05
9.900000000000007e-02	9.900000e-02	5.000000e-01	-4.489942e-05	0.000000e+00	-1.087824e-13	4.489942e-05	0.000000e+00	-4.489942e-05
1.000000000000001e-01	1.000000e-01	5.000000e-01	-4.498829e-05	0.000000e+00	-1.097907e-13	4.498829e-05	0.000000e+00	-4.498829e-05
1.010000000000001e-01	1.010000e-01	5.000000e-01	-4.507427e-05	0.000000e+00	-1.107986e-13	4.507427e-05	0.000000e+00	-4.507427e-05
1.020000000000001e-01	1.020000e-01	5.000000e-01	-4.515746e-05	0.000000e+00	-1.118062e-13	4.515746e-05	0.000000e+00	-4.515746e-05
1.030000000000001e-01	1.030000e-01	5.000000e-01	-4.523797e-05	0.000000e+00	-1.128136e-13	4.523797e-05	0.000000e+00	-4.523797e-05
1.040000000000001e-01	1.040000e-01	5.000000e-01	-4.531590e-05	0.000000e+00	-1.138207e-13	4.531590e-05	0.000000e+00	-4.531590e-05
1.050000000000001e-01	1.050000e-01	5.000000e-01	-4.539134e-05	0.000000e+00	-1.148275e-13	4.539134e-05	0.000000e+00	-4.539134e-05
1.060000000000001e-01	1.060000e-01	5.000000e-01	-4.546439e-05	0.000000e+00	-1.158340e-13	4.546439e-05	0.000000e+00	-4.546439e-05
1.070000000000001e-01	1.070000e-01	5.000000e-01	-4.553513e-05	0.000000e+00	-1.168403e-13	4.553513e-05	0.000000e+00	-4.553513e-05
1.080000000000001e-01	1.080000e-01	5.000000e-01	-4.560365e-05	0.000000e+00	-1.178464e-13	4.560365e-05	0.000000e+00	-4.560365e-05
1.090000000000001e-01	1.090000e-01	5.000000e-01	-4.567004e-05	0.000000e+00	-1.188522e-13	4.567004e-05	0.000000e+00	-4.567004e-05
1.100000000000001e-01	1.100000e-01	5.000000e-01	-4.573437e-05	0.000000e+00	-1.198578e-13	4.573437e-05	0.000000e+00	-4.573437e-05
1.110000000000001e-01	1.110000e-01	5.000000e-01	-4.579673e-05	0.000000e+00	-1.208632e-13	4.579673e-05	0.000000e+00	-4.579673e-05
1.120000000000001e-01	1.120000e-01	5.000000e-01	-4.585719e-05	0.000000e+00	-1.218684e-13	4.585719e-05	0.000000e+00	-4.585719e-05
1.130000000000001e-01	1.130000e-01	5.000000e-01	-4.591583e-05	0.000000e+00	-1.228734e-13	4.591583e-05	0.000000e+00	-4.591583e-05
1.140000000000001e-01	1.140000e-01	5.000000e-01	-4.597270e-05	0.000000e+00	-1.238782e-13	4.597270e-05	0.000000e+00	-4.597270e-05
1.150000000000001e-01	1.150000e-01	5.000000e-01	-4.602789e-05	0.000000e+00	-1.248828e-13	4.602789e-05	0.000000e+00	-4.602789e-05
1.160000000000001e-01	1.160000e-01	5.000000e-01	-4.608145e-05	0.000000e+00	-1.258872e-13	4.608145e-05	0.000000e+00	-4.608145e-05
1.170000000000001e-01	1.170000e-01	5.000000e-01	-4.613345e-05	0.000000e+00	-1.268915e-13	4.613345e-05	0.000000e+00	-4.613345e-05
1.180000000000001e-01	1.180000e-01	5.000000e-01	-4.618394e-05	0.000000e+00	-1.278956e-13	4.618394e-05	0.000000e+00	-4.618394e-05
1.190000000000001e-01	1.190000e-01	5.000000e-01	-4.623299e-05	0.000000e+00	-1.288996e-13	4.623299e-05	0.000000e+00	-4.623299e-05
1.200000000000001e-01	1.200000e-01	5.000000e-01	-4.628065e-05	0.000000e+00	-1.299034e-13	4.628065e-05	0.000000e+00	-4.628065e-05
1.210000000000001e-01	1.210000e-01	5.000000e-01	-4.632697e-05	0.000000e+00	-1.309070e-13	4.632697e-05	0.000000e+00	-4.632697e-05
1.220000000000001e-01	1.220000e-01	5.000000e-01	-4.637200e-05	0.000000e+00	-1.319106e-13	4.637200e-05	0.000000e+00	-4.637200e-05
1.230000000000001e-01	1.230000e-01	5.000000e-01	-4.641580e-05	0.000000e+00	-1.329140e-13	4.641580e-05	0.000000e+00	-4.641580e-05
1.240000000000001e-01	1.240000e-01	5.000000e-01	-4.645841e-05	0.000000e+00	-1.339172e-13	4.645841e-05	0.000000e+00	-4.645841e-05
1.250000000000001e-01	1.250000e-01	5.000000e-01	-4.649987e-05	0.000000e+00	-1.349204e-13	4.649987e-05	0.000000e+00	-4.649987e-05
1.260000000000001e-01	1.260000e-01	5.000000e-01	-4.654023e-05	0.000000e+00	-1.359234e-13	4.654023e-05	0.000000e+00	-4.654023e-05
1.270000000000001e-01	1.270000e-01	5.000000e-01	-4.657953e-05	0.000000e+00	-1.369263e-13	4.657953e-05	0.000000e+00	-4.657953e-05
1.280000000000001e-01	1.280000e-01	5.000000e-01	-4.661781e-05	0.000000e+00	-1.379291e-13	4.661781e-05	0.000000e+00	-4.661781e-05
1.290000000000001e-01	1.290000e-01	5.000000e-01	-4.665511e-05	0.000000e+00	-1.389318e-13	4.665511e-05	0.000000e+00	-4.665511e-05
1.300000000000001e-01	1.300000e-01	5.000000e-01	-4.669146e-05	0.000000e+00	-1.399344e-13	4.669146e-05	0.000000e+00	-4.669146e-05
1.310000000000001e-01	1.310000e-01	5.000000e-01	-4.672691e-05	0.000000e+00	-1.409368e-13	4.672691e-05	0.000000e+00	-4.672691e-05
1.320000000000001e-01	1.320000e-01	5.000000e-01	-4.676147e-05	0.000000e+00	-1.419392e-13	4.676147e-05	0.000000e+00	-4.676147e-05
1.330000000000001e-01	1.330000e-01	5.000000e-01	-4.679519e-05	0.000000e+00	-1.429416e-13	4.679519e-05	0.000000e+00	-4.679519e-05
1.340000000000001e-01	1.340000e-01	5.000000e-01	-4.682810e-05	0.000000e+00	-1.439438e-13	4.682810e-05	0.000000e+00	-4.682810e-05
1.350000000000001e-01	1.350000e-01	5.000000e-01	-4.686023e-05	0.000000e+00	-1.449459e-13	4.686023e-05	0.000000e+00	-4.686023e-05
1.360000000000001e-01	1.360000e-01	5.000000e-01	-4.689160e-05	0.000000e+00	-1.459480e-13	4.689160e-05	0.000000e+00	-4.689160e-05
1.370000000000001e-01	1.370000e-01	5.000000e-01	-4.692225e-05	0.000000e+00	-1.469499e-13	4.692225e-05	0.000000e+00	-4.692225e-05
1.380000000000001e-01	1.380000e-01	5.000000e-01	-4.695219e-05	0.000000e+00	-1.479518e-13	4.695219e-05	0.000000e+00	-4.695219e-05
1.390000000000001e-01	1.390000e-01	5.000000e-01	-4.698147e-05	0.000000e+00	-1.489537e-13	4.698147e-05	0.000000e+00	-4.698147e-05
1.400000000000001e-01	1.400000e-01	5.000000e-01	-4.701008e-05	0.000000e+00	-1.499554e-13	4.701008e-05	0.000000e+00	-4.701008e-05
1.410000000000001e-01	1.410000e-01	5.000000e-01	-4.703808e-05	0.000000e+00	-1.509571e-13	4.703808e-05	0.000000e+00	-4.703807e-05
1.420000000000001e-01	1.420000e-01	5.000000e-01	-4.706546e-05	0.000000e+00	-1.519587e-13	4.706546e-05	0.000000e+00	-4.706546e-05
1.430000000000001e-01	1.430000e-01	5.000000e-01	-4.709226e-05	0.000000e+00	-1.529603e-13	4.709226e-05	0.000000e+00	-4.709226e-05
1.440000000000001e-01	1.440000e-01	5.000000e-01	-4.711850e-05	0.000000e+00	-1.539618e-13	4.711850e-05	0.000000e+00	-4.711850e-05
1.450000000000001e-01	1.450000e-01	5.000000e-01	-4.714419e-05	0.000000e+00	-1.549633e-13	4.714419e-05	0.000000e+00	-4.714419e-05
1.460000000000001e-01	1.460000e-01	5.000000e-01	-4.716936e-05	0.000000e+00	-1.559646e-13	4.716936e-05	0.000000e+00	-4.716936e-05
1.470000000000001e-01	1.470000e-01	5.000000e-01	-4.719402e-05	0.000000e+00	-1.569660e-13	4.719402e-05	0.000000e+00	-4.719402e-05
1.480000000000001e-01	1.480000e-01	5.000000e-01	-4.721819e-05	0.000000e+00	-1.579673e-13	4.721819e-05	0.000000e+00	-4.721819e-05
1.490000000000001e-01	1.490000e-01	5.000000e-01	-4.724189e-05	0.000000e+00	-1.589685e-13	4.724189e-05	0.000000e+00	-4.724189e-05
1.500000000000001e-01	1.500000e-01	5.000000e-01	-4.726513e-05	0.000000e+00	-1.599697e-13	4.726513e-05	0.000000e+00	-4.726513e-05
1.510000000000001e-01	1.510000e-01	5.000000e-01	-4.728794e-05	0.000000e+00	-1.609709e-13	4.728794e-05	0.000000e+00	-4.728794e-05
1.520000000000001e-01	1.520000e-01	5.000000e-01	-4.731031e-05	0.000000e+00	-1.619720e-13	4.731031e-05	0.000000e+00	-4.731031e-05
