vout3	Id(M7)	Id(M8)
0.000000000000000e+00	5.765237e-11	0.000000e+00
1.000000000000000e-03	5.911069e-11	4.117744e-12
2.000000000000000e-03	6.061388e-11	8.411720e-12
3.000000000000000e-03	6.215737e-11	1.274428e-11
4.000000000000000e-03	6.374344e-11	1.716019e-11
5.000000000000000e-03	6.537326e-11	2.165857e-11
6.000000000000000e-03	6.704804e-11	2.623856e-11
7.000000000000000e-03	6.876901e-11	3.089935e-11
8.000000000000000e-03	7.053744e-11	3.564010e-11
9.000000000000001e-03	7.235463e-11	4.046009e-11
1.000000000000000e-02	7.422193e-11	4.535864e-11
1.100000000000000e-02	7.614070e-11	5.033516e-11
1.200000000000000e-02	7.811238e-11	5.538918e-11
1.300000000000000e-02	8.013840e-11	6.052036e-11
1.400000000000001e-02	8.222027e-11	6.572851e-11
1.500000000000001e-02	8.435951e-11	7.101362e-11
1.600000000000001e-02	8.655770e-11	7.637586e-11
1.700000000000001e-02	8.881646e-11	8.181561e-11
1.800000000000001e-02	9.113745e-11	8.733348e-11
1.900000000000001e-02	9.352238e-11	9.293032e-11
2.000000000000001e-02	9.597301e-11	9.860724e-11
2.100000000000001e-02	9.849114e-11	1.043656e-10
2.200000000000001e-02	1.010786e-10	1.102071e-10
2.300000000000001e-02	1.037373e-10	1.161336e-10
2.400000000000001e-02	1.064693e-10	1.221473e-10
2.500000000000002e-02	1.092764e-10	1.282509e-10
2.600000000000002e-02	1.121609e-10	1.344470e-10
2.700000000000002e-02	1.151247e-10	1.407388e-10
2.800000000000002e-02	1.181701e-10	1.471298e-10
2.900000000000002e-02	1.212993e-10	1.536235e-10
3.000000000000002e-02	1.245146e-10	1.602240e-10
3.100000000000002e-02	1.278184e-10	1.669354e-10
3.200000000000002e-02	1.312131e-10	1.737623e-10
3.300000000000002e-02	1.347012e-10	1.807093e-10
3.400000000000002e-02	1.382852e-10	1.877816e-10
3.500000000000002e-02	1.419677e-10	1.949842e-10
3.600000000000003e-02	1.457516e-10	2.023226e-10
3.700000000000003e-02	1.496394e-10	2.098025e-10
3.800000000000003e-02	1.536342e-10	2.174296e-10
3.900000000000003e-02	1.577388e-10	2.252100e-10
4.000000000000003e-02	1.619562e-10	2.331499e-10
4.100000000000003e-02	1.662895e-10	2.412558e-10
4.200000000000003e-02	1.707418e-10	2.495340e-10
4.300000000000003e-02	1.753166e-10	2.579915e-10
4.400000000000003e-02	1.800169e-10	2.666350e-10
4.500000000000003e-02	1.848464e-10	2.754715e-10
4.600000000000003e-02	1.898086e-10	2.845084e-10
4.700000000000003e-02	1.949070e-10	2.937529e-10
4.800000000000004e-02	2.001454e-10	3.032125e-10
4.900000000000004e-02	2.055276e-10	3.128948e-10
5.000000000000004e-02	2.110576e-10	3.228078e-10
5.100000000000004e-02	2.167394e-10	3.329594e-10
5.200000000000004e-02	2.225771e-10	3.433577e-10
5.300000000000004e-02	2.285750e-10	3.540110e-10
5.400000000000004e-02	2.347374e-10	3.649278e-10
5.500000000000004e-02	2.410689e-10	3.761168e-10
5.600000000000004e-02	2.475740e-10	3.875867e-10
5.700000000000004e-02	2.542576e-10	3.993467e-10
5.800000000000004e-02	2.611244e-10	4.114058e-10
5.900000000000005e-02	2.681795e-10	4.237735e-10
6.000000000000005e-02	2.754280e-10	4.364595e-10
6.100000000000005e-02	2.828751e-10	4.494734e-10
6.200000000000005e-02	2.905263e-10	4.628255e-10
6.300000000000004e-02	2.983872e-10	4.765259e-10
6.400000000000004e-02	3.064634e-10	4.905853e-10
6.500000000000004e-02	3.147609e-10	5.050142e-10
6.600000000000004e-02	3.232856e-10	5.198238e-10
6.700000000000005e-02	3.320437e-10	5.350253e-10
6.800000000000005e-02	3.410416e-10	5.506302e-10
6.900000000000005e-02	3.502858e-10	5.666504e-10
7.000000000000005e-02	3.597830e-10	5.830980e-10
7.100000000000005e-02	3.695401e-10	5.999852e-10
7.200000000000005e-02	3.795641e-10	6.173250e-10
7.300000000000005e-02	3.898624e-10	6.351302e-10
7.400000000000005e-02	4.004423e-10	6.534143e-10
7.500000000000005e-02	4.113115e-10	6.721909e-10
7.600000000000005e-02	4.224779e-10	6.914740e-10
7.700000000000005e-02	4.339495e-10	7.112781e-10
7.800000000000006e-02	4.457347e-10	7.316179e-10
7.900000000000006e-02	4.578419e-10	7.525086e-10
8.000000000000006e-02	4.702798e-10	7.739656e-10
8.100000000000006e-02	4.830575e-10	7.960048e-10
8.200000000000006e-02	4.961842e-10	8.186428e-10
8.300000000000006e-02	5.096693e-10	8.418961e-10
8.400000000000006e-02	5.235225e-10	8.657819e-10
8.500000000000006e-02	5.377538e-10	8.903182e-10
8.600000000000006e-02	5.523734e-10	9.155227e-10
8.700000000000006e-02	5.673920e-10	9.414142e-10
8.800000000000006e-02	5.828201e-10	9.680118e-10
8.900000000000007e-02	5.986691e-10	9.953350e-10
9.000000000000007e-02	6.149501e-10	1.023404e-09
9.100000000000007e-02	6.316749e-10	1.052239e-09
9.200000000000007e-02	6.488556e-10	1.081862e-09
9.300000000000007e-02	6.665044e-10	1.112294e-09
9.400000000000007e-02	6.846340e-10	1.143558e-09
9.500000000000007e-02	7.032573e-10	1.175677e-09
9.600000000000007e-02	7.223878e-10	1.208673e-09
9.700000000000007e-02	7.420390e-10	1.242572e-09
9.800000000000007e-02	7.622251e-10	1.277398e-09
9.900000000000007e-02	7.829605e-10	1.313176e-09
1.000000000000001e-01	8.042599e-10	1.349932e-09
1.010000000000001e-01	8.261386e-10	1.387695e-09
1.020000000000001e-01	8.486122e-10	1.426490e-09
1.030000000000001e-01	8.716967e-10	1.466346e-09
1.040000000000001e-01	8.954085e-10	1.507293e-09
1.050000000000001e-01	9.197647e-10	1.549359e-09
1.060000000000001e-01	9.447824e-10	1.592576e-09
1.070000000000001e-01	9.704795e-10	1.636976e-09
1.080000000000001e-01	9.968741e-10	1.682589e-09
1.090000000000001e-01	1.023985e-09	1.729450e-09
1.100000000000001e-01	1.051832e-09	1.777592e-09
1.110000000000001e-01	1.080434e-09	1.827051e-09
1.120000000000001e-01	1.109812e-09	1.877861e-09
1.130000000000001e-01	1.139986e-09	1.930061e-09
1.140000000000001e-01	1.170979e-09	1.983687e-09
1.150000000000001e-01	1.202811e-09	2.038778e-09
1.160000000000001e-01	1.235505e-09	2.095374e-09
1.170000000000001e-01	1.269084e-09	2.153516e-09
1.180000000000001e-01	1.303573e-09	2.213247e-09
1.190000000000001e-01	1.338995e-09	2.274608e-09
1.200000000000001e-01	1.375376e-09	2.337644e-09
1.210000000000001e-01	1.412740e-09	2.402401e-09
1.220000000000001e-01	1.451115e-09	2.468924e-09
1.230000000000001e-01	1.490528e-09	2.537263e-09
1.240000000000001e-01	1.531005e-09	2.607465e-09
1.250000000000001e-01	1.572576e-09	2.679581e-09
1.260000000000001e-01	1.615269e-09	2.753664e-09
1.270000000000001e-01	1.659115e-09	2.829765e-09
1.280000000000001e-01	1.704144e-09	2.907939e-09
1.290000000000001e-01	1.750388e-09	2.988243e-09
1.300000000000001e-01	1.797879e-09	3.070734e-09
1.310000000000001e-01	1.846651e-09	3.155470e-09
1.320000000000001e-01	1.896737e-09	3.242512e-09
1.330000000000001e-01	1.948172e-09	3.331922e-09
1.340000000000001e-01	2.000993e-09	3.423764e-09
1.350000000000001e-01	2.055236e-09	3.518103e-09
1.360000000000001e-01	2.110938e-09	3.615006e-09
1.370000000000001e-01	2.168139e-09	3.714542e-09
1.380000000000001e-01	2.226878e-09	3.816781e-09
1.390000000000001e-01	2.287197e-09	3.921797e-09
1.400000000000001e-01	2.349136e-09	4.029662e-09
1.410000000000001e-01	2.412739e-09	4.140455e-09
1.420000000000001e-01	2.478050e-09	4.254253e-09
1.430000000000001e-01	2.545114e-09	4.371136e-09
1.440000000000001e-01	2.613977e-09	4.491187e-09
1.450000000000001e-01	2.684687e-09	4.614491e-09
1.460000000000001e-01	2.757293e-09	4.741135e-09
1.470000000000001e-01	2.831845e-09	4.871207e-09
1.480000000000001e-01	2.908393e-09	5.004799e-09
1.490000000000001e-01	2.986991e-09	5.142005e-09
1.500000000000001e-01	3.067693e-09	5.282921e-09
1.510000000000001e-01	3.150554e-09	5.427646e-09
1.520000000000001e-01	3.235630e-09	5.576282e-09
1.530000000000001e-01	3.322981e-09	5.728932e-09
1.540000000000001e-01	3.412665e-09	5.885703e-09
1.550000000000001e-01	3.504745e-09	6.046704e-09
1.560000000000001e-01	3.599282e-09	6.212049e-09
1.570000000000001e-01	3.696342e-09	6.381851e-09
1.580000000000001e-01	3.795991e-09	6.556229e-09
1.590000000000001e-01	3.898295e-09	6.735305e-09
1.600000000000001e-01	4.003326e-09	6.919203e-09
1.610000000000001e-01	4.111154e-09	7.108050e-09
1.620000000000001e-01	4.221852e-09	7.301977e-09
1.630000000000001e-01	4.335496e-09	7.501118e-09
1.640000000000001e-01	4.452161e-09	7.705612e-09
1.650000000000001e-01	4.571928e-09	7.915599e-09
1.660000000000001e-01	4.694876e-09	8.131225e-09
1.670000000000001e-01	4.821090e-09	8.352636e-09
1.680000000000001e-01	4.950653e-09	8.579987e-09
1.690000000000001e-01	5.083653e-09	8.813434e-09
1.700000000000001e-01	5.220179e-09	9.053137e-09
1.710000000000001e-01	5.360324e-09	9.299260e-09
1.720000000000001e-01	5.504179e-09	9.551971e-09
1.730000000000001e-01	5.651843e-09	9.811444e-09
1.740000000000001e-01	5.803414e-09	1.007786e-08
1.750000000000001e-01	5.958993e-09	1.035139e-08
1.760000000000001e-01	6.118683e-09	1.063223e-08
1.770000000000001e-01	6.282592e-09	1.092057e-08
1.780000000000001e-01	6.450827e-09	1.121660e-08
1.790000000000001e-01	6.623502e-09	1.152053e-08
1.800000000000001e-01	6.800729e-09	1.183256e-08
1.810000000000001e-01	6.982627e-09	1.215290e-08
1.820000000000001e-01	7.169317e-09	1.248177e-08
1.830000000000001e-01	7.360920e-09	1.281940e-08
1.840000000000001e-01	7.557564e-09	1.316600e-08
1.850000000000001e-01	7.759380e-09	1.352182e-08
1.860000000000001e-01	7.966497e-09	1.388709e-08
1.870000000000001e-01	8.179054e-09	1.426205e-08
1.880000000000001e-01	8.397190e-09	1.464697e-08
1.890000000000001e-01	8.621047e-09	1.504209e-08
1.900000000000001e-01	8.850772e-09	1.544769e-08
1.910000000000001e-01	9.086515e-09	1.586402e-08
1.920000000000001e-01	9.328430e-09	1.629138e-08
1.930000000000001e-01	9.576675e-09	1.673004e-08
1.940000000000001e-01	9.831409e-09	1.718030e-08
1.950000000000001e-01	1.009280e-08	1.764246e-08
1.960000000000001e-01	1.036102e-08	1.811682e-08
1.970000000000001e-01	1.063624e-08	1.860369e-08
1.980000000000001e-01	1.091863e-08	1.910341e-08
1.990000000000001e-01	1.120838e-08	1.961629e-08
2.000000000000001e-01	1.150568e-08	2.014268e-08
2.010000000000002e-01	1.181072e-08	2.068293e-08
2.020000000000002e-01	1.212369e-08	2.123738e-08
2.030000000000002e-01	1.244480e-08	2.180641e-08
2.040000000000002e-01	1.277425e-08	2.239038e-08
2.050000000000002e-01	1.311225e-08	2.298969e-08
2.060000000000002e-01	1.345901e-08	2.360471e-08
2.070000000000002e-01	1.381477e-08	2.423585e-08
2.080000000000002e-01	1.417974e-08	2.488353e-08
2.090000000000002e-01	1.455415e-08	2.554816e-08
2.100000000000002e-01	1.493825e-08	2.623018e-08
2.110000000000002e-01	1.533228e-08	2.693002e-08
2.120000000000002e-01	1.573648e-08	2.764815e-08
2.130000000000002e-01	1.615112e-08	2.838502e-08
2.140000000000002e-01	1.657645e-08	2.914111e-08
2.150000000000002e-01	1.701273e-08	2.991691e-08
2.160000000000002e-01	1.746026e-08	3.071292e-08
2.170000000000002e-01	1.791930e-08	3.152965e-08
2.180000000000002e-01	1.839015e-08	3.236762e-08
2.190000000000002e-01	1.887309e-08	3.322736e-08
2.200000000000002e-01	1.936844e-08	3.410944e-08
2.210000000000002e-01	1.987649e-08	3.501441e-08
2.220000000000002e-01	2.039756e-08	3.594284e-08
2.230000000000002e-01	2.093199e-08	3.689533e-08
2.240000000000002e-01	2.148009e-08	3.787249e-08
2.250000000000002e-01	2.204222e-08	3.887493e-08
2.260000000000002e-01	2.261870e-08	3.990329e-08
2.270000000000002e-01	2.320992e-08	4.095821e-08
2.280000000000002e-01	2.381621e-08	4.204037e-08
2.290000000000002e-01	2.443797e-08	4.315044e-08
2.300000000000002e-01	2.507556e-08	4.428912e-08
2.310000000000002e-01	2.572939e-08	4.545712e-08
2.320000000000002e-01	2.639985e-08	4.665519e-08
2.330000000000002e-01	2.708735e-08	4.788406e-08
2.340000000000002e-01	2.779231e-08	4.914451e-08
2.350000000000002e-01	2.851516e-08	5.043733e-08
2.360000000000002e-01	2.925634e-08	5.176330e-08
2.370000000000002e-01	3.001630e-08	5.312327e-08
2.380000000000002e-01	3.079549e-08	5.451807e-08
2.390000000000002e-01	3.159439e-08	5.594857e-08
2.400000000000002e-01	3.241348e-08	5.741565e-08
2.410000000000002e-01	3.325326e-08	5.892022e-08
2.420000000000002e-01	3.411423e-08	6.046320e-08
2.430000000000002e-01	3.499690e-08	6.204554e-08
2.440000000000002e-01	3.590181e-08	6.366823e-08
2.450000000000002e-01	3.682949e-08	6.533224e-08
2.460000000000002e-01	3.778051e-08	6.703861e-08
2.470000000000002e-01	3.875542e-08	6.878836e-08
2.480000000000002e-01	3.975482e-08	7.058257e-08
2.490000000000002e-01	4.077928e-08	7.242234e-08
2.500000000000002e-01	4.182943e-08	7.430877e-08
2.510000000000002e-01	4.290587e-08	7.624303e-08
2.520000000000002e-01	4.400926e-08	7.822627e-08
2.530000000000002e-01	4.514024e-08	8.025970e-08
2.540000000000002e-01	4.629947e-08	8.234455e-08
2.550000000000002e-01	4.748764e-08	8.448207e-08
2.560000000000002e-01	4.870545e-08	8.667355e-08
2.570000000000002e-01	4.995360e-08	8.892032e-08
2.580000000000002e-01	5.123284e-08	9.122370e-08
2.590000000000002e-01	5.254391e-08	9.358510e-08
2.600000000000002e-01	5.388757e-08	9.600591e-08
2.610000000000002e-01	5.526461e-08	9.848760e-08
2.620000000000002e-01	5.667583e-08	1.010316e-07
2.630000000000002e-01	5.812204e-08	1.036395e-07
2.640000000000002e-01	5.960409e-08	1.063128e-07
2.650000000000002e-01	6.112283e-08	1.090531e-07
2.660000000000002e-01	6.267914e-08	1.118620e-07
2.670000000000002e-01	6.427392e-08	1.147412e-07
2.680000000000002e-01	6.590809e-08	1.176924e-07
2.690000000000002e-01	6.758258e-08	1.207173e-07
2.700000000000002e-01	6.929837e-08	1.238177e-07
2.710000000000002e-01	7.105643e-08	1.269955e-07
2.720000000000002e-01	7.285776e-08	1.302524e-07
2.730000000000002e-01	7.470340e-08	1.335905e-07
2.740000000000002e-01	7.659441e-08	1.370116e-07
2.750000000000002e-01	7.853185e-08	1.405178e-07
2.760000000000002e-01	8.051683e-08	1.441110e-07
2.770000000000002e-01	8.255049e-08	1.477935e-07
2.780000000000002e-01	8.463397e-08	1.515673e-07
2.790000000000002e-01	8.676844e-08	1.554347e-07
2.800000000000002e-01	8.895513e-08	1.593978e-07
2.810000000000002e-01	9.119526e-08	1.634590e-07
2.820000000000002e-01	9.349009e-08	1.676206e-07
2.830000000000002e-01	9.584092e-08	1.718851e-07
2.840000000000002e-01	9.824908e-08	1.762548e-07
2.850000000000002e-01	1.007159e-07	1.807323e-07
2.860000000000002e-01	1.032428e-07	1.853203e-07
2.870000000000002e-01	1.058311e-07	1.900212e-07
2.880000000000002e-01	1.084824e-07	1.948378e-07
2.890000000000002e-01	1.111980e-07	1.997730e-07
2.900000000000002e-01	1.139796e-07	2.048294e-07
2.910000000000002e-01	1.168286e-07	2.100100e-07
2.920000000000002e-01	1.197466e-07	2.153177e-07
2.930000000000002e-01	1.227353e-07	2.207556e-07
2.940000000000002e-01	1.257962e-07	2.263267e-07
2.950000000000002e-01	1.289312e-07	2.320342e-07
2.960000000000002e-01	1.321419e-07	2.378814e-07
2.970000000000002e-01	1.354301e-07	2.438715e-07
2.980000000000002e-01	1.387976e-07	2.500080e-07
2.990000000000002e-01	1.422463e-07	2.562942e-07
3.000000000000002e-01	1.457780e-07	2.627339e-07
3.010000000000002e-01	1.493947e-07	2.693305e-07
3.020000000000002e-01	1.530984e-07	2.760877e-07
3.030000000000002e-01	1.568910e-07	2.830095e-07
3.040000000000002e-01	1.607747e-07	2.900996e-07
3.050000000000002e-01	1.647515e-07	2.973620e-07
3.060000000000002e-01	1.688237e-07	3.048008e-07
3.070000000000002e-01	1.729933e-07	3.124201e-07
3.080000000000002e-01	1.772628e-07	3.202242e-07
3.090000000000002e-01	1.816344e-07	3.282173e-07
3.100000000000002e-01	1.861104e-07	3.364040e-07
3.110000000000002e-01	1.906932e-07	3.447888e-07
3.120000000000002e-01	1.953854e-07	3.533762e-07
3.130000000000002e-01	2.001894e-07	3.621711e-07
3.140000000000002e-01	2.051079e-07	3.711783e-07
3.150000000000002e-01	2.101433e-07	3.804028e-07
3.160000000000002e-01	2.152985e-07	3.898496e-07
3.170000000000002e-01	2.205762e-07	3.995239e-07
3.180000000000002e-01	2.259791e-07	4.094309e-07
3.190000000000002e-01	2.315102e-07	4.195761e-07
3.200000000000002e-01	2.371723e-07	4.299651e-07
3.210000000000002e-01	2.429685e-07	4.406034e-07
3.220000000000002e-01	2.489017e-07	4.514969e-07
3.230000000000002e-01	2.549752e-07	4.626514e-07
3.240000000000002e-01	2.611921e-07	4.740730e-07
3.250000000000002e-01	2.675556e-07	4.857679e-07
3.260000000000002e-01	2.740690e-07	4.977422e-07
3.270000000000002e-01	2.807359e-07	5.100025e-07
3.280000000000002e-01	2.875595e-07	5.225553e-07
3.290000000000002e-01	2.945435e-07	5.354073e-07
3.300000000000002e-01	3.016914e-07	5.485654e-07
3.310000000000002e-01	3.090069e-07	5.620365e-07
3.320000000000002e-01	3.164938e-07	5.758278e-07
3.330000000000002e-01	3.241558e-07	5.899465e-07
3.340000000000002e-01	3.319970e-07	6.044002e-07
3.350000000000002e-01	3.400213e-07	6.191964e-07
3.360000000000002e-01	3.482327e-07	6.343428e-07
3.370000000000002e-01	3.566354e-07	6.498474e-07
3.380000000000002e-01	3.652336e-07	6.657182e-07
3.390000000000002e-01	3.740317e-07	6.819635e-07
3.400000000000002e-01	3.830339e-07	6.985915e-07
3.410000000000002e-01	3.922449e-07	7.156111e-07
3.420000000000002e-01	4.016691e-07	7.330307e-07
3.430000000000002e-01	4.113112e-07	7.508595e-07
3.440000000000003e-01	4.211760e-07	7.691064e-07
3.450000000000003e-01	4.312683e-07	7.877807e-07
3.460000000000003e-01	4.415929e-07	8.068918e-07
3.470000000000003e-01	4.521550e-07	8.264494e-07
3.480000000000003e-01	4.629595e-07	8.464633e-07
3.490000000000003e-01	4.740118e-07	8.669434e-07
3.500000000000003e-01	4.853171e-07	8.878999e-07
3.510000000000003e-01	4.968807e-07	9.093432e-07
3.520000000000003e-01	5.087081e-07	9.312839e-07
3.530000000000003e-01	5.208050e-07	9.537326e-07
3.540000000000003e-01	5.331769e-07	9.767003e-07
3.550000000000003e-01	5.458297e-07	1.000198e-06
3.560000000000003e-01	5.587692e-07	1.024238e-06
3.570000000000003e-01	5.720013e-07	1.048830e-06
3.580000000000003e-01	5.855322e-07	1.073987e-06
3.590000000000003e-01	5.993679e-07	1.099721e-06
3.600000000000003e-01	6.135148e-07	1.126043e-06
3.610000000000003e-01	6.279791e-07	1.152967e-06
3.620000000000003e-01	6.427674e-07	1.180504e-06
3.630000000000003e-01	6.578862e-07	1.208668e-06
3.640000000000003e-01	6.733421e-07	1.237471e-06
3.650000000000003e-01	6.891420e-07	1.266927e-06
3.660000000000003e-01	7.052925e-07	1.297048e-06
3.670000000000003e-01	7.218008e-07	1.327849e-06
3.680000000000003e-01	7.386739e-07	1.359342e-06
3.690000000000003e-01	7.559188e-07	1.391543e-06
3.700000000000003e-01	7.735429e-07	1.424465e-06
3.710000000000003e-01	7.915535e-07	1.458123e-06
3.720000000000003e-01	8.099581e-07	1.492531e-06
3.730000000000003e-01	8.287641e-07	1.527704e-06
3.740000000000003e-01	8.479793e-07	1.563657e-06
3.750000000000003e-01	8.676114e-07	1.600405e-06
3.760000000000003e-01	8.876681e-07	1.637964e-06
3.770000000000003e-01	9.081575e-07	1.676349e-06
3.780000000000003e-01	9.290875e-07	1.715576e-06
3.790000000000003e-01	9.504663e-07	1.755660e-06
3.800000000000003e-01	9.723020e-07	1.796619e-06
3.810000000000003e-01	9.946029e-07	1.838468e-06
3.820000000000003e-01	1.017377e-06	1.881224e-06
3.830000000000003e-01	1.040634e-06	1.924903e-06
3.840000000000003e-01	1.064381e-06	1.969524e-06
3.850000000000003e-01	1.088628e-06	2.015102e-06
3.860000000000003e-01	1.113382e-06	2.061654e-06
3.870000000000003e-01	1.138653e-06	2.109200e-06
3.880000000000003e-01	1.164450e-06	2.157755e-06
3.890000000000003e-01	1.190781e-06	2.207338e-06
3.900000000000003e-01	1.217655e-06	2.257966e-06
3.910000000000003e-01	1.245083e-06	2.309658e-06
3.920000000000003e-01	1.273072e-06	2.362433e-06
3.930000000000003e-01	1.301632e-06	2.416307e-06
3.940000000000003e-01	1.330772e-06	2.471301e-06
3.950000000000003e-01	1.360501e-06	2.527432e-06
3.960000000000003e-01	1.390830e-06	2.584719e-06
3.970000000000003e-01	1.421767e-06	2.643181e-06
3.980000000000003e-01	1.453321e-06	2.702838e-06
3.990000000000003e-01	1.485503e-06	2.763708e-06
4.000000000000003e-01	1.518322e-06	2.825811e-06
4.010000000000003e-01	1.551788e-06	2.889166e-06
4.020000000000003e-01	1.585909e-06	2.953792e-06
4.030000000000003e-01	1.620697e-06	3.019709e-06
4.040000000000003e-01	1.656159e-06	3.086937e-06
4.050000000000003e-01	1.692307e-06	3.155494e-06
4.060000000000003e-01	1.729151e-06	3.225402e-06
